time	V(Vrefp,Vref)	V(vdecap)	V(vref)	V(vrefp)	I(C_electrolytic)	I(C_l)	I(C_x7r)	I(I1)
0.000000000000000e+000	-2.249479e-004	1.399975e+000	1.400000e+000	1.399775e+000	6.580000e-016	1.399775e-024	2.799950e-018	5.000000e-007
9.765624960978488e-016	-2.249479e-004	1.399975e+000	1.400000e+000	1.399775e+000	1.645000e-016	-1.952685e-009	-5.960464e-007	5.019526e-007
1.953124992195698e-015	-2.249479e-004	1.399975e+000	1.400000e+000	1.399775e+000	0.000000e+000	-3.905333e-009	-6.357829e-007	5.039053e-007
3.906249984391395e-015	-2.249479e-004	1.399975e+000	1.400000e+000	1.399775e+000	0.000000e+000	-7.810551e-009	-3.576279e-007	5.078106e-007
7.812499968782791e-015	-2.249479e-004	1.399975e+000	1.400000e+000	1.399775e+000	0.000000e+000	-1.562094e-008	-3.973643e-008	5.156211e-007
1.562499993756558e-014	-2.249479e-004	1.399975e+000	1.400000e+000	1.399775e+000	0.000000e+000	-3.124144e-008	7.947286e-008	5.312422e-007
3.124999987513116e-014	-2.249479e-004	1.399975e+000	1.400000e+000	1.399775e+000	0.000000e+000	-6.248132e-008	9.934108e-009	5.624844e-007
6.249999975026233e-014	-2.249479e-004	1.399975e+000	1.400000e+000	1.399775e+000	0.000000e+000	-1.249566e-007	2.980232e-008	6.249688e-007
1.249999995005247e-013	-2.249479e-004	1.399975e+000	1.400000e+000	1.399775e+000	0.000000e+000	-2.498887e-007	1.862645e-008	7.499375e-007
2.499999990010493e-013	-2.250671e-004	1.399975e+000	1.400000e+000	1.399775e+000	0.000000e+000	-4.996798e-007	-3.725290e-009	9.998749e-007
9.999999960041972e-013	-2.262592e-004	1.399975e+000	1.400000e+000	1.399774e+000	0.000000e+000	-1.996380e-006	-2.638747e-009	2.499500e-006
1.999999992008394e-012	-2.299547e-004	1.399975e+000	1.400000e+000	1.399770e+000	0.000000e+000	-3.986536e-006	-1.241763e-008	4.499000e-006
3.999999984016789e-012	-2.448559e-004	1.399975e+000	1.400000e+000	1.399755e+000	0.000000e+000	-7.948279e-006	-4.990337e-008	8.498000e-006
7.999999968033578e-012	-3.041029e-004	1.399975e+000	1.400000e+000	1.399696e+000	0.000000e+000	-1.579817e-005	-1.979060e-007	1.649600e-005
1.599999993606716e-011	-5.382299e-004	1.399975e+000	1.400000e+000	1.399462e+000	0.000000e+000	-3.120899e-005	-7.830774e-007	3.249200e-005
3.199999987213431e-011	-1.451969e-003	1.399975e+000	1.400000e+000	1.398548e+000	0.000000e+000	-6.091653e-005	-3.067534e-006	6.448400e-005
6.399999974426862e-011	-4.938126e-003	1.399975e+000	1.400000e+000	1.395062e+000	0.000000e+000	-1.161852e-004	-1.178278e-005	1.284680e-004
1.279999994885372e-010	-1.709485e-002	1.399975e+000	1.400000e+000	1.382905e+000	0.000000e+000	-2.137613e-004	-4.217466e-005	2.564360e-004
2.256562494885372e-010	-4.522562e-002	1.399975e+000	1.400000e+000	1.354774e+000	0.000000e+000	-3.386980e-004	-1.125016e-004	4.516997e-004
3.233124994885372e-010	-8.320034e-002	1.399975e+000	1.400000e+000	1.316800e+000	0.000000e+000	-4.390248e-004	-2.074383e-004	6.469634e-004
4.209687494885372e-010	-1.299068e-001	1.399975e+000	1.400000e+000	1.270093e+000	0.000000e+000	-5.175225e-004	-3.242040e-004	8.422270e-004
5.186249994885372e-010	-1.834451e-001	1.399975e+000	1.400000e+000	1.216555e+000	0.000000e+000	-5.789406e-004	-4.580492e-004	1.037491e-003
6.162812494885372e-010	-2.423286e-001	1.399975e+000	1.400000e+000	1.157671e+000	0.000000e+000	-6.269953e-004	-6.052576e-004	1.232754e-003
7.139374994885372e-010	-3.053945e-001	1.399975e+000	1.400000e+000	1.094605e+000	0.000000e+000	-6.645944e-004	-7.629216e-004	1.428018e-003
8.115937494885372e-010	-3.717328e-001	1.399975e+000	1.400000e+000	1.028267e+000	0.000000e+000	-6.940126e-004	-9.287662e-004	1.623282e-003
9.242499994885372e-010	-4.509442e-001	1.399975e+000	1.400000e+000	9.490557e-001	0.000000e+000	-7.212402e-004	-1.126793e-003	1.848538e-003
9.442499994885372e-010	-4.654129e-001	1.399975e+000	1.400000e+000	9.345871e-001	0.000000e+000	-7.250585e-004	-1.162965e-003	1.888528e-003
9.600000000000000e-010	-4.768472e-001	1.399975e+000	1.400000e+000	9.231528e-001	0.000000e+000	-7.279651e-004	-1.191550e-003	1.920020e-003
9.900000000000001e-010	-4.987595e-001	1.399975e+000	1.400000e+000	9.012405e-001	0.000000e+000	-7.331692e-004	-1.246331e-003	1.980005e-003
9.950000000000000e-010	-5.024272e-001	1.399975e+000	1.400000e+000	8.975728e-001	0.000000e+000	-7.339976e-004	-1.255500e-003	1.990003e-003
9.970000081834043e-010	-5.038957e-001	1.399975e+000	1.400000e+000	8.961043e-001	0.000000e+000	-7.343253e-004	-1.259171e-003	1.994001e-003
1.000000000000000e-009	-5.060992e-001	1.399975e+000	1.400000e+000	8.939008e-001	0.000000e+000	-7.348151e-004	-1.264680e-003	2.000000e-003
1.000299999181660e-009	-5.063194e-001	1.399975e+000	1.400000e+000	8.936806e-001	0.000000e+000	-7.342646e-004	-1.265231e-003	2.000000e-003
1.000899997544979e-009	-5.067593e-001	1.399975e+000	1.400000e+000	8.932406e-001	0.000000e+000	-7.331647e-004	-1.266330e-003	2.000000e-003
1.002099994271617e-009	-5.076379e-001	1.399975e+000	1.400000e+000	8.923621e-001	1.682941e-007	-7.309684e-004	-1.268527e-003	2.000000e-003
1.002600006546724e-009	-5.080032e-001	1.399975e+000	1.400000e+000	8.919968e-001	2.781550e-007	-7.300552e-004	-1.269440e-003	2.000000e-003
1.003600031096936e-009	-5.087319e-001	1.399975e+000	1.400000e+000	8.912681e-001	2.334481e-007	-7.282333e-004	-1.271262e-003	2.000000e-003
1.005000000000000e-009	-5.097503e-001	1.399975e+000	1.400000e+000	8.902497e-001	-1.192093e-007	-7.256874e-004	-1.273808e-003	2.000000e-003
1.005139996890307e-009	-5.098513e-001	1.399975e+000	1.400000e+000	8.901486e-001	-6.755193e-007	-7.226355e-004	-1.274061e-003	1.997201e-003
1.005419990670919e-009	-5.100521e-001	1.399975e+000	1.400000e+000	8.899479e-001	-8.742015e-007	-7.165351e-004	-1.274563e-003	1.991602e-003
1.005979978232145e-009	-5.104474e-001	1.399975e+000	1.400000e+000	8.895526e-001	-5.960464e-007	-7.043500e-004	-1.275551e-003	1.980405e-003
1.007099953354596e-009	-5.112124e-001	1.399975e+000	1.400000e+000	8.887876e-001	-2.980232e-007	-6.800435e-004	-1.277463e-003	1.958011e-003
1.009339903599498e-009	-5.126410e-001	1.399975e+000	1.400000e+000	8.873590e-001	-1.490116e-007	-6.316844e-004	-1.281035e-003	1.913224e-003
1.013819804089302e-009	-5.150960e-001	1.399975e+000	1.400000e+000	8.849040e-001	-7.450581e-008	-5.359711e-004	-1.287172e-003	1.823648e-003
1.022779605068910e-009	-5.184312e-001	1.399975e+000	1.400000e+000	8.815687e-001	-3.725290e-008	-3.484818e-004	-1.295510e-003	1.644497e-003
1.040699207028127e-009	-5.196788e-001	1.399975e+000	1.400000e+000	8.803211e-001	-1.659460e-008	1.293959e-005	-1.298629e-003	1.286194e-003
1.069160796081567e-009	-5.091411e-001	1.399975e+000	1.400000e+000	8.908588e-001	-5.801648e-009	5.556848e-004	-1.272284e-003	7.171049e-004
1.105000000000000e-009	-4.820873e-001	1.399975e+000	1.400000e+000	9.179127e-001	-7.450581e-009	1.204655e-003	-1.204649e-003	5.000000e-007
1.108583920391844e-009	-4.778209e-001	1.399975e+000	1.400000e+000	9.221791e-001	-2.235174e-008	1.193989e-003	-1.193983e-003	5.000000e-007
1.115751761175530e-009	-4.694008e-001	1.399975e+000	1.400000e+000	9.305992e-001	-2.731880e-008	1.172939e-003	-1.172932e-003	5.000000e-007
1.130087442742904e-009	-4.530956e-001	1.399975e+000	1.400000e+000	9.469044e-001	-1.862645e-008	1.132176e-003	-1.132169e-003	5.000000e-007
1.158758805877650e-009	-4.225391e-001	1.399975e+000	1.400000e+000	9.774609e-001	-9.313226e-009	1.055784e-003	-1.055778e-003	5.000000e-007
1.216101532147144e-009	-3.682048e-001	1.399975e+000	1.400000e+000	1.031795e+000	-4.209744e-009	9.199487e-004	-9.199413e-004	5.000000e-007
1.313757782147144e-009	-2.900602e-001	1.399975e+000	1.400000e+000	1.109940e+000	-9.313226e-010	7.245871e-004	-7.245789e-004	5.000000e-007
1.411414032147144e-009	-2.269977e-001	1.399975e+000	1.400000e+000	1.173002e+000	0.000000e+000	5.669310e-004	-5.669222e-004	5.000000e-007
1.509070282147144e-009	-1.776565e-001	1.399975e+000	1.400000e+000	1.222343e+000	0.000000e+000	4.435778e-004	-4.435685e-004	5.000000e-007
1.606726532147144e-009	-1.390510e-001	1.399974e+000	1.400000e+000	1.260949e+000	0.000000e+000	3.470639e-004	-3.470542e-004	5.000000e-007
1.704382782147144e-009	-1.088454e-001	1.399974e+000	1.400000e+000	1.291155e+000	0.000000e+000	2.715495e-004	-2.715395e-004	5.000000e-007
1.802039032147144e-009	-8.521175e-002	1.399974e+000	1.400000e+000	1.314788e+000	0.000000e+000	2.124656e-004	-2.124554e-004	5.000000e-007
1.899695282147144e-009	-6.672037e-002	1.399974e+000	1.400000e+000	1.333280e+000	0.000000e+000	1.662372e-004	-1.662268e-004	5.000000e-007
1.997351532147144e-009	-5.225241e-002	1.399974e+000	1.400000e+000	1.347748e+000	0.000000e+000	1.300672e-004	-1.300567e-004	5.000000e-007
2.095007782147144e-009	-4.093230e-002	1.399974e+000	1.400000e+000	1.359068e+000	0.000000e+000	1.017671e-004	-1.017564e-004	5.000000e-007
2.192664032147144e-009	-3.207529e-002	1.399974e+000	1.400000e+000	1.367925e+000	0.000000e+000	7.962457e-005	-7.961379e-005	5.000000e-007
2.290320282147144e-009	-2.514541e-002	1.399974e+000	1.400000e+000	1.374855e+000	0.000000e+000	6.229980e-005	-6.228896e-005	5.000000e-007
2.387976532147144e-009	-1.972330e-002	1.399974e+000	1.400000e+000	1.380277e+000	0.000000e+000	4.874458e-005	-4.873368e-005	5.000000e-007
2.485632782147144e-009	-1.548100e-002	1.399974e+000	1.400000e+000	1.384519e+000	0.000000e+000	3.813870e-005	-3.812776e-005	5.000000e-007
2.583289032147143e-009	-1.216173e-002	1.399974e+000	1.400000e+000	1.387838e+000	0.000000e+000	2.984046e-005	-2.982949e-005	5.000000e-007
2.680945282147143e-009	-9.564638e-003	1.399974e+000	1.400000e+000	1.390435e+000	0.000000e+000	2.334775e-005	-2.333676e-005	5.000000e-007
2.778601532147143e-009	-7.532716e-003	1.399974e+000	1.400000e+000	1.392467e+000	0.000000e+000	1.826774e-005	-1.825672e-005	5.000000e-007
2.876257782147143e-009	-5.942702e-003	1.399974e+000	1.400000e+000	1.394057e+000	0.000000e+000	1.429303e-005	-1.428200e-005	5.000000e-007
2.973914032147143e-009	-4.698753e-003	1.399974e+000	1.400000e+000	1.395301e+000	0.000000e+000	1.118315e-005	-1.117210e-005	5.000000e-007
3.071570282147143e-009	-3.725410e-003	1.399974e+000	1.400000e+000	1.396275e+000	0.000000e+000	8.749910e-006	-8.738854e-006	5.000000e-007
3.169226532147143e-009	-2.963901e-003	1.399974e+000	1.400000e+000	1.397036e+000	0.000000e+000	6.846099e-006	-6.835035e-006	5.000000e-007
3.266882782147143e-009	-2.368093e-003	1.399974e+000	1.400000e+000	1.397632e+000	0.000000e+000	5.356521e-006	-5.345450e-006	5.000000e-007
3.364539032147143e-009	-1.901984e-003	1.399974e+000	1.400000e+000	1.398098e+000	0.000000e+000	4.191046e-006	-4.179969e-006	5.000000e-007
3.462195282147143e-009	-1.537204e-003	1.399974e+000	1.400000e+000	1.398463e+000	0.000000e+000	3.279155e-006	-3.268075e-006	5.000000e-007
3.559851532147142e-009	-1.251817e-003	1.399974e+000	1.400000e+000	1.398748e+000	0.000000e+000	2.565675e-006	-2.554591e-006	5.000000e-007
3.657507782147142e-009	-1.028538e-003	1.399974e+000	1.400000e+000	1.398971e+000	0.000000e+000	2.007434e-006	-1.996345e-006	5.000000e-007
3.755164032147143e-009	-8.537769e-004	1.399974e+000	1.400000e+000	1.399146e+000	0.000000e+000	1.570655e-006	-1.559563e-006	5.000000e-007
3.852820282147142e-009	-7.170439e-004	1.399974e+000	1.400000e+000	1.399283e+000	0.000000e+000	1.228911e-006	-1.217819e-006	5.000000e-007
3.950476532147142e-009	-6.101131e-004	1.399974e+000	1.400000e+000	1.399390e+000	0.000000e+000	9.615238e-007	-9.504311e-007	5.000000e-007
4.048132782147142e-009	-5.265474e-004	1.399974e+000	1.400000e+000	1.399473e+000	0.000000e+000	7.523149e-007	-7.412218e-007	5.000000e-007
4.145789032147142e-009	-4.609823e-004	1.399974e+000	1.400000e+000	1.399539e+000	0.000000e+000	5.886258e-007	-5.775328e-007	5.000000e-007
4.243445282147142e-009	-4.097223e-004	1.399974e+000	1.400000e+000	1.399590e+000	0.000000e+000	4.605522e-007	-4.494595e-007	5.000000e-007
4.341101532147142e-009	-3.696680e-004	1.399974e+000	1.400000e+000	1.399630e+000	0.000000e+000	3.603450e-007	-3.492514e-007	5.000000e-007
4.438757782147142e-009	-3.383160e-004	1.399974e+000	1.400000e+000	1.399662e+000	0.000000e+000	2.819409e-007	-2.708457e-007	5.000000e-007
4.536414032147142e-009	-3.137589e-004	1.399974e+000	1.400000e+000	1.399686e+000	0.000000e+000	2.205960e-007	-2.095003e-007	5.000000e-007
4.634070282147142e-009	-2.945662e-004	1.399974e+000	1.400000e+000	1.399705e+000	0.000000e+000	1.725986e-007	-1.615044e-007	5.000000e-007
4.731726532147142e-009	-2.795458e-004	1.399974e+000	1.400000e+000	1.399720e+000	0.000000e+000	1.350445e-007	-1.239514e-007	5.000000e-007
4.829382782147141e-009	-2.677441e-004	1.399974e+000	1.400000e+000	1.399732e+000	0.000000e+000	1.056614e-007	-9.456562e-008	5.000000e-007
4.927039032147141e-009	-2.585649e-004	1.399974e+000	1.400000e+000	1.399741e+000	0.000000e+000	8.267157e-008	-7.157541e-008	5.000000e-007
5.024695282147141e-009	-2.514124e-004	1.399974e+000	1.400000e+000	1.399749e+000	0.000000e+000	6.468384e-008	-5.358925e-008	5.000000e-007
5.122351532147141e-009	-2.458096e-004	1.399974e+000	1.400000e+000	1.399754e+000	0.000000e+000	5.060989e-008	-3.951573e-008	5.000000e-007
5.220007782147141e-009	-2.413988e-004	1.399974e+000	1.400000e+000	1.399759e+000	0.000000e+000	3.959816e-008	-2.850356e-008	5.000000e-007
5.415320282147141e-009	-2.351999e-004	1.399974e+000	1.400000e+000	1.399765e+000	0.000000e+000	2.424121e-008	-1.314038e-008	5.000000e-007
5.610632782147141e-009	-2.315044e-004	1.399974e+000	1.400000e+000	1.399768e+000	0.000000e+000	1.483999e-008	-3.741661e-009	5.000000e-007
5.903601532147140e-009	-2.282858e-004	1.399974e+000	1.400000e+000	1.399772e+000	0.000000e+000	7.108084e-009	3.983587e-009	5.000000e-007
6.168668496432855e-009	-2.273394e-004	1.399974e+000	1.400000e+000	1.399773e+000	0.000000e+000	4.607981e-009	6.485648e-009	5.000000e-007
6.433735460718569e-009	-2.265779e-004	1.399974e+000	1.400000e+000	1.399773e+000	0.000000e+000	2.605963e-009	8.489162e-009	5.000000e-007
6.698802425004284e-009	-2.260014e-004	1.399974e+000	1.400000e+000	1.399774e+000	0.000000e+000	1.102031e-009	9.994129e-009	5.000000e-007
6.963869389289998e-009	-2.256097e-004	1.399974e+000	1.400000e+000	1.399774e+000	0.000000e+000	9.618543e-011	1.100055e-008	5.000000e-007
7.228936353575713e-009	-2.254029e-004	1.399974e+000	1.400000e+000	1.399775e+000	0.000000e+000	-4.115742e-010	1.150842e-008	5.000000e-007
7.494003317861427e-009	-2.253810e-004	1.399974e+000	1.400000e+000	1.399775e+000	0.000000e+000	-4.212478e-010	1.151775e-008	5.000000e-007
7.759070282147141e-009	-2.255440e-004	1.399974e+000	1.400000e+000	1.399774e+000	0.000000e+000	6.716463e-011	1.102853e-008	5.000000e-007
9.907507782147156e-009	-2.255440e-004	1.399974e+000	1.400000e+000	1.399774e+000	4.783077e-010	3.092609e-013	1.109584e-008	5.000000e-007
1.000000000000000e-008	-2.255440e-004	1.399974e+000	1.400000e+000	1.399774e+000	1.862645e-009	2.428925e-013	1.109584e-008	5.000000e-007
1.000924922178528e-008	-4.471540e-004	1.399974e+000	1.400000e+000	1.399553e+000	6.208817e-010	-1.793968e-005	-5.430459e-007	1.899382e-005
1.002774766535585e-008	-1.366258e-003	1.399974e+000	1.400000e+000	1.398634e+000	0.000000e+000	-5.262958e-005	-2.840786e-006	5.598146e-005
1.006474455249699e-008	-5.367756e-003	1.399974e+000	1.400000e+000	1.394632e+000	0.000000e+000	-1.166011e-004	-1.284455e-005	1.299567e-004
1.013873832677927e-008	-1.985407e-002	1.399974e+000	1.400000e+000	1.380146e+000	0.000000e+000	-2.283360e-004	-4.906012e-005	2.779073e-004
1.023639457677927e-008	-4.893816e-002	1.399974e+000	1.400000e+000	1.351062e+000	0.000000e+000	-3.508894e-004	-1.217703e-004	4.731709e-004
1.033405082677927e-008	-8.797395e-002	1.399974e+000	1.400000e+000	1.312026e+000	0.000000e+000	-4.485636e-004	-2.193596e-004	6.684346e-004
1.043170707677927e-008	-1.355106e-001	1.399974e+000	1.400000e+000	1.264489e+000	0.000000e+000	-5.249858e-004	-3.382008e-004	8.636983e-004
1.052936332677927e-008	-1.896983e-001	1.399974e+000	1.400000e+000	1.210302e+000	0.000000e+000	-5.847801e-004	-4.736698e-004	1.058962e-003
1.062701957677927e-008	-2.490902e-001	1.399974e+000	1.400000e+000	1.150910e+000	0.000000e+000	-6.315643e-004	-6.221487e-004	1.254226e-003
1.072467582677927e-008	-3.125538e-001	1.399974e+000	1.400000e+000	1.087446e+000	0.000000e+000	-6.681692e-004	-7.808069e-004	1.449489e-003
1.082233207677927e-008	-3.791022e-001	1.399974e+000	1.400000e+000	1.020898e+000	0.000000e+000	-6.970617e-004	-9.471772e-004	1.644753e-003
1.090234375000000e-008	-4.352258e-001	1.399974e+000	1.400000e+000	9.647741e-001	-1.402474e-008	-7.167360e-004	-1.087485e-003	1.804736e-003
1.090734375000000e-008	-4.387920e-001	1.399974e+000	1.400000e+000	9.612079e-001	-1.738469e-008	-7.178181e-004	-1.096401e-003	1.814734e-003
1.091734375000000e-008	-4.459877e-001	1.399974e+000	1.400000e+000	9.540123e-001	-1.862645e-008	-7.198239e-004	-1.114390e-003	1.834729e-003
1.093734375000001e-008	-4.604353e-001	1.399974e+000	1.400000e+000	9.395647e-001	-7.682559e-009	-7.236949e-004	-1.150509e-003	1.874719e-003
1.096000000000000e-008	-4.768639e-001	1.399974e+000	1.400000e+000	9.231361e-001	-1.288066e-008	-7.279246e-004	-1.191580e-003	1.920020e-003
1.096500000000000e-008	-4.805028e-001	1.399974e+000	1.400000e+000	9.194971e-001	-1.738469e-008	-7.288248e-004	-1.200677e-003	1.930017e-003
1.097500000000000e-008	-4.877999e-001	1.399974e+000	1.400000e+000	9.122001e-001	-2.235174e-008	-7.305773e-004	-1.218920e-003	1.950013e-003
1.099000000000000e-008	-4.987777e-001	1.399974e+000	1.400000e+000	9.012223e-001	-2.235174e-008	-7.331251e-004	-1.246364e-003	1.980005e-003
1.100000000000000e-008	-5.061152e-001	1.399974e+000	1.400000e+000	8.938848e-001	-2.980232e-008	-7.347765e-004	-1.264707e-003	2.000000e-003
1.100050000000000e-008	-5.064819e-001	1.399974e+000	1.400000e+000	8.935180e-001	-9.934108e-009	-7.338595e-004	-1.265625e-003	2.000000e-003
1.100150000000000e-008	-5.072144e-001	1.399974e+000	1.400000e+000	8.927856e-001	0.000000e+000	-7.320286e-004	-1.267456e-003	2.000000e-003
1.100300000000000e-008	-5.083097e-001	1.399974e+000	1.400000e+000	8.916903e-001	0.000000e+000	-7.292903e-004	-1.270194e-003	2.000000e-003
1.100500000000000e-008	-5.097660e-001	1.399974e+000	1.400000e+000	8.902340e-001	0.000000e+000	-7.256495e-004	-1.273834e-003	2.000000e-003
1.100520000000000e-008	-5.099099e-001	1.399974e+000	1.400000e+000	8.900900e-001	-3.178914e-007	-7.212906e-004	-1.274194e-003	1.996001e-003
1.100560000000000e-008	-5.101953e-001	1.399974e+000	1.400000e+000	8.898047e-001	-4.371007e-007	-7.125793e-004	-1.274907e-003	1.988003e-003
1.100640000000000e-008	-5.107532e-001	1.399974e+000	1.400000e+000	8.892468e-001	-2.980232e-007	-6.951886e-004	-1.276302e-003	1.972007e-003
1.100800000000000e-008	-5.118170e-001	1.399974e+000	1.400000e+000	8.881830e-001	-1.490116e-007	-6.605371e-004	-1.278962e-003	1.940015e-003
1.101120000000000e-008	-5.137382e-001	1.399974e+000	1.400000e+000	8.862618e-001	-7.450581e-008	-5.917500e-004	-1.283765e-003	1.876031e-003
1.101759999999999e-008	-5.167674e-001	1.399974e+000	1.400000e+000	8.832325e-001	-3.725290e-008	-4.562088e-004	-1.291338e-003	1.748063e-003
1.103039999999999e-008	-5.196676e-001	1.399974e+000	1.400000e+000	8.803324e-001	-1.862645e-008	-1.930226e-004	-1.298588e-003	1.492127e-003
1.105599999999997e-008	-5.137951e-001	1.399974e+000	1.400000e+000	8.862049e-001	-8.619104e-009	3.041682e-004	-1.283906e-003	9.802550e-004
1.110500000000000e-008	-4.823165e-001	1.399974e+000	1.400000e+000	9.176835e-001	0.000000e+000	1.205227e-003	-1.205209e-003	5.000000e-007
1.113930000000002e-008	-4.432472e-001	1.399974e+000	1.400000e+000	9.567528e-001	0.000000e+000	1.107553e-003	-1.107536e-003	5.000000e-007
1.117850000000004e-008	-4.032333e-001	1.399974e+000	1.400000e+000	9.967666e-001	0.000000e+000	1.007519e-003	-1.007501e-003	5.000000e-007
1.125690000000009e-008	-3.336737e-001	1.399974e+000	1.400000e+000	1.066326e+000	0.000000e+000	8.336194e-004	-8.336005e-004	5.000000e-007
1.135455625000009e-008	-2.619747e-001	1.399974e+000	1.400000e+000	1.138025e+000	0.000000e+000	6.543716e-004	-6.543520e-004	5.000000e-007
